 ****** HSPICE -- A-2008.03 32-BIT (Feb 26 2008) winnt ******                   
  Copyright (C) 2008 Synopsys, Inc. All Rights Reserved.                        
  Unpublished-rights reserved under US copyright laws.
  This program is protected by law and is subject to the 
  terms and conditions of the license agreement found in:
    C:\synopsys\Hspice_A-2008.03\license.warn
  Use of this program is your acceptance to be bound by this 
  license agreement. HSPICE is the trademark of Synopsys, Inc.
  Input File: c:\users\hp\desktop\hspice netlists\git\hspice-netlists\rc-lpf\rcl
 Init: read install configuration file: C:\synopsys\Hspice_A-2008.03\meta.cfg
 Init: hspice initialization file: C:\synopsys\Hspice_A-2008.03\hspice.ini




 r1 in out 1k
 c1 out 0 10p
 vin in 0 ac 1
 .ac dec 200 1meg 50meg
 .end
 
 **warning**  To avoid produce hard-to-solve matrix equations, connect gdcpath from node        0:out              defined in subckt 0               
      
1****** HSPICE -- A-2008.03 32-BIT (Feb 26 2008) winnt ******                   
 ******  
 an rc lpf circuit for testing hspice                                           
  ******  operating point information      tnom=  25.000 temp=  25.000          
 ******  
 ***** operating point status is all       simulation time is     0.     
    node    =voltage      node    =voltage

 +0:in      =   0.      0:out     =   0.     


 ****  voltage sources

 subckt             
 element  0:vin     
  volts      0.     
  current    0.     
  power      0.     

     total voltage source power dissipation=    0.            watts



 **** resistors

 subckt             
 element  0:r1      
  r value    1.0000k
  v drop     0.     
  current    0.     
  power      0.     


          ***** job concluded
1****** HSPICE -- A-2008.03 32-BIT (Feb 26 2008) winnt ******                   
 ******  
 an rc lpf circuit for testing hspice                                           
  ******  job statistics summary           tnom=  25.000 temp=  25.000          
 ******  

           total memory used         28 kbytes

  # nodes =       3 # elements=       3
  # diodes=       0 # bjts    =       0 # jfets   =       0 # mosfets =       0
  # va device =       0

    analysis           time    # points   tot. iter  conv.iter

    op point           0.08           1           3
    ac analysis        0.16         341         341
    readin             0.00
    errchk             0.09
    setup              0.05
    output             0.00
           total cpu time          0.39 seconds
           total elapsed time         1 seconds
               job started at  02:55:47 09/25/2019
               job ended   at  02:55:47 09/25/2019


 Init: hspice initialization file: C:\synopsys\Hspice_A-2008.03\hspice.ini
